
T0FA4 000:622 SEGGER J-Link V4.90 Log File (0001ms, 0295ms total)
T0FA4 000:622 DLL Compiled: Jul 28 2014 10:35:20 (0001ms, 0295ms total)
T0FA4 000:622 Logging started @ 2017-01-20 13:48 (0001ms, 0295ms total)
T0FA4 000:623 JLINK_SetWarnOutHandler(...) (0000ms, 0295ms total)
T0FA4 000:623 JLINK_OpenEx(...)
Firmware: J-Link V9 compiled Apr 22 2016 11:47:06
Hardware: V9.20
Feature(s): GDB, RDI, FlashBP, FlashDL, JFlash  returns O.K. (0265ms, 0560ms total)
T0FA4 000:888 JLINK_SetErrorOutHandler(...) (0000ms, 0560ms total)
T0FA4 000:888 JLINK_ExecCommand("ProjectFile = "E:\viva1-s\11_设计代码\系统开发部\软件组\SCPU\C0006\ModuleDemo\MSR\MSR\Project\MDK-ARM(uV4)\JLinkSettings.ini"", ...)  returns 0x00 (0003ms, 0563ms total)
T0FA4 000:891 JLINK_ExecCommand("Device = Cortex-M3", ...)Device "CORTEX-M3" selected (0 KB flash, 0 KB RAM).  returns 0x00 (0001ms, 0564ms total)
T0FA4 000:892 JLINK_ExecCommand("DisableConnectionTimeout", ...)  returns 0x01 (0000ms, 0564ms total)
T0FA4 000:892 JLINK_GetHardwareVersion()  returns 0x16760 (0000ms, 0564ms total)
T0FA4 000:892 JLINK_GetDLLVersion()  returns 49000 (0000ms, 0564ms total)
T0FA4 000:892 JLINK_GetFirmwareString(...) (0000ms, 0564ms total)
T0FA4 000:892 JLINK_GetDLLVersion()  returns 49000 (0000ms, 0564ms total)
T0FA4 000:892 JLINK_GetCompileDateTime() (0000ms, 0564ms total)
T0FA4 000:892 JLINK_GetFirmwareString(...) (0000ms, 0564ms total)
T0FA4 000:892 JLINK_GetHardwareVersion()  returns 0x16760 (0000ms, 0564ms total)
T0FA4 000:893 JLINK_TIF_Select(JLINKARM_TIF_JTAG)  returns 0x00 (0003ms, 0567ms total)
T0FA4 000:896 JLINK_SetSpeed(2000) (0001ms, 0568ms total)
T0FA4 000:897 JLINK_GetIdData(...) >0x2F8 JTAG>TotalIRLen = 4, IRPrint = 0x01 >0x30 JTAG> >0x210 JTAG> >0x70 JTAG> >0x40 JTAG> >0x40 JTAG> >0x40 JTAG> >0x48 JTAG> >0x78 JTAG> >0x40 JTAG> >0x30 JTAG> >0x40 JTAG> >0x40 JTAG> >0x30 JTAG> >0x40 JTAG> >0x48 JTAG>Found Cortex-M3 r0p1, Little endian. -- CPU_WriteMem(4 bytes @ 0xE0002000) -- CPU_ReadMem(4 bytes @ 0xE000EDF0) -- CPU_ReadMem(4 bytes @ 0xE0002000)FPUnit: 6 code (BP) slots and 2 literal slots -- CPU_ReadMem(4 bytes @ 0xE000EDFC)
 -- CPU_ReadMem(4 bytes @ 0xE0001000) -- CPU_WriteMem(4 bytes @ 0xE0001000) -- CPU_ReadMem(4 bytes @ 0xE00FF010) -- CPU_ReadMem(4 bytes @ 0xE00FF014) -- CPU_ReadMem(4 bytes @ 0xE00FF018) ScanLen=4 NumDevices=1 aId[0]=0x4BA00477 aIrRead[0]=0 aScanLen[0]=0 aScanRead[0]=0 (0020ms, 0588ms total)
T0FA4 000:917 JLINK_JTAG_GetDeviceID(DeviceIndex = 0)  returns 0x4BA00477 (0000ms, 0588ms total)
T0FA4 000:917 JLINK_JTAG_GetDeviceInfo(DeviceIndex = 0)  returns 0x00 (0000ms, 0588ms total)
T0FA4 000:917 JLINK_GetDeviceFamily()  returns 3 (0000ms, 0588ms total)
T0FA4 000:917 JLINK_ReadMem (0xE00FFFF0, 0x0010 Bytes, ...) -- CPU is running -- CPU_ReadMem(16 bytes @ 0xE00FFFF0) - Data: 0D 00 00 00 10 00 00 00 05 00 00 00 B1 00 00 00  returns 0x00 (0001ms, 0589ms total)
T0FA4 000:918 JLINK_ReadMem (0xE00FFFD0, 0x0020 Bytes, ...) -- CPU is running -- CPU_ReadMem(32 bytes @ 0xE00FFFD0) - Data: 04 00 00 00 00 00 00 00 00 00 00 00 00 00 00 00 ...  returns 0x00 (0002ms, 0591ms total)
T0FA4 000:920 JLINK_ReadMem (0xE00FF000, 0x0018 Bytes, ...) -- CPU is running -- CPU_ReadMem(24 bytes @ 0xE00FF000) - Data: 03 F0 F0 FF 03 20 F0 FF 03 30 F0 FF 02 10 F0 FF ...  returns 0x00 (0001ms, 0592ms total)
T0FA4 000:921 JLINK_ReadMemU32(0xE000ED00, 0x0001 Items, ...) -- CPU is running -- CPU_ReadMem(4 bytes @ 0xE000ED00) - Data: 31 C3 0F 41  returns 0x01 (0000ms, 0592ms total)
T0FA4 000:921 JLINK_SetResetType(JLINKARM_RESET_TYPE_NORMAL)  returns JLINKARM_RESET_TYPE_NORMAL (0000ms, 0592ms total)
T0FA4 000:921 JLINK_Reset() -- CPU is running -- CPU_WriteMem(4 bytes @ 0xE000EDF0) -- CPU is running -- CPU_WriteMem(4 bytes @ 0xE000EDFC) -- CPU is running -- CPU_WriteMem(4 bytes @ 0xE000ED0C) -- CPU is running -- CPU_ReadMem(4 bytes @ 0xE000EDF0) -- CPU is running -- CPU_ReadMem(4 bytes @ 0xE000EDF0) -- CPU is running -- CPU_WriteMem(4 bytes @ 0xE000EDF0) -- CPU is running -- CPU_WriteMem(4 bytes @ 0xE000EDFC) -- CPU is running -- CPU_ReadMem(4 bytes @ 0xE000EDF0) >0x78 JTAG> >0x40 JTAG> >0x30 JTAG>
 >0x40 JTAG> >0x48 JTAG> >0x40 JTAG> -- CPU_WriteMem(4 bytes @ 0xE000EDFC) -- CPU_WriteMem(4 bytes @ 0xE0001028) -- CPU_WriteMem(4 bytes @ 0xE0001038) -- CPU_WriteMem(4 bytes @ 0xE0001048) -- CPU_WriteMem(4 bytes @ 0xE0001058) -- CPU_WriteMem(4 bytes @ 0xE0002000) -- CPU_ReadMem(4 bytes @ 0xE000EDFC) -- CPU_ReadMem(4 bytes @ 0xE0001000) (0030ms, 0622ms total)
T0FA4 000:952 JLINK_ReadReg(R15 (PC))  returns 0x000001FC (0000ms, 0623ms total)
T0FA4 000:952 JLINK_ReadReg(XPSR)  returns 0x01000000 (0000ms, 0623ms total)
T0FA4 000:952 JLINK_Halt()  returns 0x00 (0000ms, 0623ms total)
T0FA4 000:952 JLINK_IsHalted()  returns TRUE (0000ms, 0623ms total)
T0FA4 000:952 JLINK_ReadMemU32(0xE000EDF0, 0x0001 Items, ...) -- CPU_ReadMem(4 bytes @ 0xE000EDF0) - Data: 03 00 03 00  returns 0x01 (0001ms, 0624ms total)
T0FA4 000:953 JLINK_WriteU32(0xE000EDF0, 0xA05F0003) -- CPU_WriteMem(4 bytes @ 0xE000EDF0)  returns 0x00 (0000ms, 0624ms total)
T0FA4 000:953 JLINK_WriteU32(0xE000EDFC, 0x01000000) -- CPU_WriteMem(4 bytes @ 0xE000EDFC)  returns 0x00 (0001ms, 0625ms total)
T0FA4 000:955 JLINK_GetHWStatus(...)  returns 0x00 (0000ms, 0625ms total)
T0FA4 000:955 JLINK_GetNumBPUnits(Type = 0xFFFFFF00)  returns 0x06 (0000ms, 0625ms total)
T0FA4 000:955 JLINK_GetNumBPUnits(Type = 0xF0)  returns 0x2000 (0000ms, 0625ms total)
T0FA4 000:955 JLINK_GetNumWPUnits()  returns 0x04 (0000ms, 0625ms total)
T0FA4 000:955 JLINK_GetSpeed()  returns 0x7D0 (0000ms, 0625ms total)
T0FA4 000:955 JLINK_ReadMemU32(0xE000E004, 0x0001 Items, ...) -- CPU_ReadMem(4 bytes @ 0xE000E004) - Data: 00 00 00 00  returns 0x01 (0002ms, 0627ms total)
T0FA4 000:957 JLINK_ReadMemU32(0xE000E004, 0x0001 Items, ...) -- CPU_ReadMem(4 bytes @ 0xE000E004) - Data: 00 00 00 00  returns 0x01 (0001ms, 0628ms total)
T0FA4 000:958 JLINK_WriteMem(0xE0001000, 0x001C Bytes, ...) - Data: 01 00 00 00 00 00 00 00 00 00 00 00 00 00 00 00 ... -- CPU_WriteMem(28 bytes @ 0xE0001000)  returns 0x1C (0001ms, 0629ms total)
T0FA4 000:959 JLINK_ReadMem (0xE0001000, 0x001C Bytes, ...) -- CPU_ReadMem(28 bytes @ 0xE0001000) - Data: 01 00 00 4F 00 00 00 00 00 00 00 00 00 00 00 00 ...  returns 0x00 (0001ms, 0630ms total)
T0FA4 000:960 JLINK_ReadReg(R15 (PC))  returns 0x000001FC (0000ms, 0630ms total)
T0FA4 000:960 JLINK_ReadReg(XPSR)  returns 0x01000000 (0000ms, 0630ms total)
T0FA4 000:982 JLINK_WriteMem(0x01004000, 0x1000 Bytes, ...) - Data: D0 F0 00 20 C9 46 00 01 3D 43 00 01 3F 43 00 01 ... -- CPU_WriteMem(4096 bytes @ 0x01004000)  returns 0x1000 (0024ms, 0654ms total)
T0FA4 001:007 JLINK_WriteMem(0x01005000, 0x1000 Bytes, ...) - Data: FF F7 50 F9 2D B1 FB 48 80 68 20 43 F9 49 88 60 ... -- CPU_WriteMem(4096 bytes @ 0x01005000)  returns 0x1000 (0023ms, 0677ms total)
T0FA4 001:031 JLINK_WriteMem(0x01006000, 0x1000 Bytes, ...) - Data: 00 F0 4D FF 90 48 00 7A 40 B9 00 BF 55 20 89 49 ... -- CPU_WriteMem(4096 bytes @ 0x01006000)  returns 0x1000 (0024ms, 0701ms total)
T0FA4 001:056 JLINK_WriteMem(0x01007000, 0x04CC Bytes, ...) - Data: 0A EB 8A 01 02 EB 41 01 44 F0 02 04 00 EB 01 0A ... -- CPU_WriteMem(1228 bytes @ 0x01007000)  returns 0x4CC (0007ms, 0708ms total)
T0FA4 001:119 JLINK_SetResetType(JLINKARM_RESET_TYPE_NORMAL)  returns JLINKARM_RESET_TYPE_NORMAL (0000ms, 0708ms total)
T0FA4 001:119 JLINK_Reset() -- CPU_WriteMem(4 bytes @ 0xE000EDF0) -- CPU_WriteMem(4 bytes @ 0xE000EDFC) -- CPU_WriteMem(4 bytes @ 0xE000ED0C) -- CPU_ReadMem(4 bytes @ 0xE000EDF0) -- CPU_ReadMem(4 bytes @ 0xE000EDF0) -- CPU_WriteMem(4 bytes @ 0xE000EDF0) -- CPU_WriteMem(4 bytes @ 0xE000EDFC) -- CPU is running -- CPU_ReadMem(4 bytes @ 0xE000EDF0) >0x78 JTAG> >0x40 JTAG> >0x30 JTAG> >0x40 JTAG> >0x48 JTAG> >0x40 JTAG> -- CPU_WriteMem(4 bytes @ 0xE000EDFC) -- CPU_WriteMem(4 bytes @ 0xE0001028)
 -- CPU_WriteMem(4 bytes @ 0xE0001038) -- CPU_WriteMem(4 bytes @ 0xE0001048) -- CPU_WriteMem(4 bytes @ 0xE0001058) -- CPU_WriteMem(4 bytes @ 0xE0002000) -- CPU_ReadMem(4 bytes @ 0xE000EDFC) -- CPU_ReadMem(4 bytes @ 0xE0001000) (0031ms, 0739ms total)
T0FA4 001:150 JLINK_ReadReg(R15 (PC))  returns 0x000001FC (0000ms, 0739ms total)
T0FA4 001:150 JLINK_ReadReg(XPSR)  returns 0x01000000 (0001ms, 0740ms total)
T0FA4 001:151 JLINK_ReadMem (0x000001FC, 0x003C Bytes, ...) -- CPU_ReadMem(60 bytes @ 0x000001FC) - Data: 02 48 03 49 01 60 03 48 00 00 00 00 00 00 00 00 ...  returns 0x00 (0001ms, 0741ms total)
T0FA4 001:978 JLINK_WriteMem(0x01004000, 0x1000 Bytes, ...) - Data: D0 F0 00 20 C9 46 00 01 3D 43 00 01 3F 43 00 01 ... -- CPU_WriteMem(4096 bytes @ 0x01004000)  returns 0x1000 (0024ms, 0765ms total)
T0FA4 002:128 JLINK_WriteMem(0x01005000, 0x1000 Bytes, ...) - Data: FF F7 50 F9 2D B1 FB 48 80 68 20 43 F9 49 88 60 ... -- CPU_WriteMem(4096 bytes @ 0x01005000)  returns 0x1000 (0024ms, 0789ms total)
T0FA4 002:347 JLINK_WriteMem(0x01006000, 0x1000 Bytes, ...) - Data: 00 F0 4D FF 90 48 00 7A 40 B9 00 BF 55 20 89 49 ... -- CPU_WriteMem(4096 bytes @ 0x01006000)  returns 0x1000 (0023ms, 0812ms total)
T0FA4 002:708 JLINK_WriteMem(0x01007000, 0x04CC Bytes, ...) - Data: 0A EB 8A 01 02 EB 41 01 44 F0 02 04 00 EB 01 0A ... -- CPU_WriteMem(1228 bytes @ 0x01007000)  returns 0x4CC (0008ms, 0820ms total)
T0FA4 002:768 JLINK_WriteReg(R13 (SP), 0x2000F0D0)  returns 0x00 (0000ms, 0820ms total)
T0FA4 002:768 JLINK_ReadReg(R0)  returns 0x00000000 (0001ms, 0821ms total)
T0FA4 002:769 JLINK_ReadReg(R1)  returns 0x00000000 (0000ms, 0821ms total)
T0FA4 002:769 JLINK_ReadReg(R2)  returns 0x00000000 (0000ms, 0821ms total)
T0FA4 002:769 JLINK_ReadReg(R3)  returns 0x00000000 (0000ms, 0821ms total)
T0FA4 002:769 JLINK_ReadReg(R4)  returns 0x00000000 (0000ms, 0821ms total)
T0FA4 002:769 JLINK_ReadReg(R5)  returns 0x00000000 (0000ms, 0821ms total)
T0FA4 002:769 JLINK_ReadReg(R6)  returns 0x00000000 (0000ms, 0821ms total)
T0FA4 002:769 JLINK_ReadReg(R7)  returns 0x00000000 (0000ms, 0821ms total)
T0FA4 002:769 JLINK_ReadReg(R8)  returns 0x00000000 (0000ms, 0821ms total)
T0FA4 002:769 JLINK_ReadReg(R9)  returns 0x00000000 (0000ms, 0821ms total)
T0FA4 002:769 JLINK_ReadReg(R10)  returns 0x00000000 (0000ms, 0821ms total)
T0FA4 002:769 JLINK_ReadReg(R11)  returns 0x00000000 (0000ms, 0821ms total)
T0FA4 002:769 JLINK_ReadReg(R12)  returns 0x00000000 (0000ms, 0821ms total)
T0FA4 002:769 JLINK_ReadReg(R13 (SP))  returns 0x2000F0D0 (0000ms, 0821ms total)
T0FA4 002:769 JLINK_ReadReg(R14)  returns 0xFFFFFFFF (0000ms, 0821ms total)
T0FA4 002:769 JLINK_ReadReg(R15 (PC))  returns 0x000001FC (0000ms, 0821ms total)
T0FA4 002:769 JLINK_ReadReg(XPSR)  returns 0x01000000 (0000ms, 0821ms total)
T0FA4 002:769 JLINK_ReadReg(MSP)  returns 0x2000F0D0 (0000ms, 0821ms total)
T0FA4 002:769 JLINK_ReadReg(PSP)  returns 0x00000000 (0000ms, 0821ms total)
T0FA4 002:769 JLINK_ReadReg(CFBP)  returns 0x00000000 (0000ms, 0821ms total)
T0FA4 002:769 JLINK_WriteReg(R15 (PC), 0x010046C8)  returns 0x00 (0000ms, 0821ms total)
T0FA0 010:257 JLINK_SetBPEx(Addr = 0x010041E8, Type = 0xFFFFFFF2)  returns 0x00000001 (0001ms, 0822ms total)
T0FA0 010:258 JLINK_Go() -- CPU_WriteMem(4 bytes @ 0xE0002008) -- CPU_WriteMem(4 bytes @ 0xE000200C) -- CPU_WriteMem(4 bytes @ 0xE0002010) -- CPU_WriteMem(4 bytes @ 0xE0002014) -- CPU_WriteMem(4 bytes @ 0xE0002018) -- CPU_WriteMem(4 bytes @ 0xE000201C) -- CPU_WriteMem(4 bytes @ 0xE0001004) (0007ms, 0829ms total)
T0FA0 010:365 JLINK_IsHalted()  returns TRUE (0004ms, 0833ms total)
T0FA0 010:369 JLINK_Halt()  returns 0x00 (0000ms, 0829ms total)
T0FA0 010:369 JLINK_IsHalted()  returns TRUE (0000ms, 0829ms total)
T0FA0 010:369 JLINK_IsHalted()  returns TRUE (0000ms, 0829ms total)
T0FA0 010:369 JLINK_IsHalted()  returns TRUE (0000ms, 0829ms total)
T0FA0 010:369 JLINK_ReadReg(R15 (PC))  returns 0x010041E8 (0000ms, 0829ms total)
T0FA0 010:369 JLINK_ReadReg(XPSR)  returns 0x61000000 (0000ms, 0829ms total)
T0FA0 010:369 JLINK_ClrBPEx(BPHandle = 0x00000001)  returns 0x00 (0000ms, 0829ms total)
T0FA0 010:369 JLINK_ReadMemU32(0xE000ED30, 0x0001 Items, ...) -- CPU_ReadMem(4 bytes @ 0xE000ED30) - Data: 02 00 00 00  returns 0x01 (0001ms, 0830ms total)
T0FA0 010:370 JLINK_ReadMemU32(0xE0001028, 0x0001 Items, ...) -- CPU_ReadMem(4 bytes @ 0xE0001028) - Data: 00 00 00 00  returns 0x01 (0001ms, 0831ms total)
T0FA0 010:371 JLINK_ReadMemU32(0xE0001038, 0x0001 Items, ...) -- CPU_ReadMem(4 bytes @ 0xE0001038) - Data: 00 02 00 00  returns 0x01 (0001ms, 0832ms total)
T0FA0 010:372 JLINK_ReadMemU32(0xE0001048, 0x0001 Items, ...) -- CPU_ReadMem(4 bytes @ 0xE0001048) - Data: 00 00 00 00  returns 0x01 (0001ms, 0833ms total)
T0FA0 010:373 JLINK_ReadMemU32(0xE0001058, 0x0001 Items, ...) -- CPU_ReadMem(4 bytes @ 0xE0001058) - Data: 00 00 00 00  returns 0x01 (0000ms, 0833ms total)
T0FA0 010:374 JLINK_ReadReg(R0)  returns 0x00000023 (0000ms, 0834ms total)
T0FA0 010:374 JLINK_ReadReg(R1)  returns 0x00000082 (0000ms, 0834ms total)
T0FA0 010:374 JLINK_ReadReg(R2)  returns 0x00000001 (0000ms, 0834ms total)
T0FA0 010:374 JLINK_ReadReg(R3)  returns 0x00000083 (0000ms, 0834ms total)
T0FA0 010:374 JLINK_ReadReg(R4)  returns 0x0100748C (0000ms, 0834ms total)
T0FA0 010:374 JLINK_ReadReg(R5)  returns 0x0100748C (0000ms, 0834ms total)
T0FA0 010:374 JLINK_ReadReg(R6)  returns 0x00000000 (0000ms, 0834ms total)
T0FA0 010:374 JLINK_ReadReg(R7)  returns 0x00000000 (0000ms, 0834ms total)
T0FA0 010:374 JLINK_ReadReg(R8)  returns 0x00000000 (0000ms, 0834ms total)
T0FA0 010:374 JLINK_ReadReg(R9)  returns 0x00000000 (0000ms, 0834ms total)
T0FA0 010:374 JLINK_ReadReg(R10)  returns 0x00000000 (0000ms, 0834ms total)
T0FA0 010:374 JLINK_ReadReg(R11)  returns 0x00000000 (0000ms, 0834ms total)
T0FA0 010:374 JLINK_ReadReg(R12)  returns 0x00000000 (0000ms, 0834ms total)
T0FA0 010:374 JLINK_ReadReg(R13 (SP))  returns 0x2000EF40 (0000ms, 0834ms total)
T0FA0 010:374 JLINK_ReadReg(R14)  returns 0x01004483 (0000ms, 0834ms total)
T0FA0 010:374 JLINK_ReadReg(R15 (PC))  returns 0x010041E8 (0000ms, 0834ms total)
T0FA0 010:374 JLINK_ReadReg(XPSR)  returns 0x61000000 (0001ms, 0835ms total)
T0FA0 010:375 JLINK_ReadReg(MSP)  returns 0x2000EF40 (0000ms, 0835ms total)
T0FA0 010:375 JLINK_ReadReg(PSP)  returns 0x00000000 (0000ms, 0835ms total)
T0FA0 010:375 JLINK_ReadReg(CFBP)  returns 0x00000000 (0000ms, 0835ms total)
T0FA4 010:375 JLINK_ReadMem (0x2000EF48, 0x0001 Bytes, ...) -- CPU_ReadMem(1 bytes @ 0x2000EF48) - Data: 00  returns 0x00 (0001ms, 0836ms total)
T0FA4 010:376 JLINK_ReadMem (0x2000EF44, 0x0001 Bytes, ...) -- CPU_ReadMem(1 bytes @ 0x2000EF44) - Data: 00  returns 0x00 (0001ms, 0837ms total)
T0FA4 010:377 JLINK_ReadMem (0x00000000, 0x0004 Bytes, ...) -- CPU_ReadMem(4 bytes @ 0x00000000) - Data: 00 24 00 20  returns 0x00 (0001ms, 0838ms total)
T0FA4 010:391 JLINK_ReadMem (0x010041E8, 0x003C Bytes, ...) -- CPU_ReadMem(128 bytes @ 0x010041C0) -- Updating DA cache (128 bytes @ 0x010041C0) -- Read from DA cache (60 bytes @ 0x010041E8) - Data: 00 F0 0C FA 02 20 01 F0 92 FE 01 F0 D0 FE 05 20 ...  returns 0x00 (0002ms, 0840ms total)
T0FA0 027:006 JLINK_Step() -- Read from DA cache (2 bytes @ 0x010041E8) -- CPU_ReadMem(4 bytes @ 0xE0001004) -- Not simulated -- CPU_WriteMem(4 bytes @ 0xE0002008)  returns 0x00 (0008ms, 0848ms total)
T0FA0 027:014 JLINK_ReadReg(R15 (PC))  returns 0x01004604 (0000ms, 0848ms total)
T0FA0 027:014 JLINK_ReadReg(XPSR)  returns 0x61000000 (0000ms, 0848ms total)
T0FA0 027:014 JLINK_SetBPEx(Addr = 0x010041EC, Type = 0xFFFFFFF2)  returns 0x00000002 (0000ms, 0848ms total)
T0FA0 027:014 JLINK_SetBPEx(Addr = 0x010041E8, Type = 0xFFFFFFF2)  returns 0x00000003 (0000ms, 0848ms total)
T0FA0 027:014 JLINK_Go() -- CPU_WriteMem(4 bytes @ 0xE0002008) -- CPU_WriteMem(4 bytes @ 0xE000200C) (0001ms, 0849ms total)
T0FA0 027:116 JLINK_IsHalted()  returns TRUE (0004ms, 0853ms total)
T0FA0 027:120 JLINK_Halt()  returns 0x00 (0000ms, 0849ms total)
T0FA0 027:120 JLINK_IsHalted()  returns TRUE (0000ms, 0849ms total)
T0FA0 027:120 JLINK_IsHalted()  returns TRUE (0000ms, 0849ms total)
T0FA0 027:120 JLINK_IsHalted()  returns TRUE (0000ms, 0849ms total)
T0FA0 027:120 JLINK_ReadReg(R15 (PC))  returns 0x010041EC (0000ms, 0849ms total)
T0FA0 027:120 JLINK_ReadReg(XPSR)  returns 0x41000000 (0000ms, 0849ms total)
T0FA0 027:120 JLINK_ClrBPEx(BPHandle = 0x00000002)  returns 0x00 (0000ms, 0849ms total)
T0FA0 027:120 JLINK_ClrBPEx(BPHandle = 0x00000003)  returns 0x00 (0000ms, 0849ms total)
T0FA0 027:120 JLINK_ReadMemU32(0xE000ED30, 0x0001 Items, ...) -- CPU_ReadMem(4 bytes @ 0xE000ED30) - Data: 02 00 00 00  returns 0x01 (0001ms, 0850ms total)
T0FA0 027:121 JLINK_ReadMemU32(0xE0001028, 0x0001 Items, ...) -- CPU_ReadMem(4 bytes @ 0xE0001028) - Data: 00 00 00 00  returns 0x01 (0001ms, 0851ms total)
T0FA0 027:122 JLINK_ReadMemU32(0xE0001038, 0x0001 Items, ...) -- CPU_ReadMem(4 bytes @ 0xE0001038) - Data: 00 02 00 00  returns 0x01 (0001ms, 0852ms total)
T0FA0 027:123 JLINK_ReadMemU32(0xE0001048, 0x0001 Items, ...) -- CPU_ReadMem(4 bytes @ 0xE0001048) - Data: 00 00 00 00  returns 0x01 (0001ms, 0853ms total)
T0FA0 027:124 JLINK_ReadMemU32(0xE0001058, 0x0001 Items, ...) -- CPU_ReadMem(4 bytes @ 0xE0001058) - Data: 00 00 00 00  returns 0x01 (0000ms, 0853ms total)
T0FA0 027:125 JLINK_ReadReg(R0)  returns 0x00000009 (0000ms, 0853ms total)
T0FA0 027:125 JLINK_ReadReg(R1)  returns 0x00000200 (0000ms, 0853ms total)
T0FA0 027:125 JLINK_ReadReg(R2)  returns 0xE000E000 (0000ms, 0853ms total)
T0FA0 027:125 JLINK_ReadReg(R3)  returns 0xE000E000 (0000ms, 0853ms total)
T0FA0 027:125 JLINK_ReadReg(R4)  returns 0x0100748C (0000ms, 0853ms total)
T0FA0 027:125 JLINK_ReadReg(R5)  returns 0x0100748C (0000ms, 0853ms total)
T0FA0 027:125 JLINK_ReadReg(R6)  returns 0x00000000 (0000ms, 0853ms total)
T0FA0 027:125 JLINK_ReadReg(R7)  returns 0x00000000 (0000ms, 0853ms total)
T0FA0 027:125 JLINK_ReadReg(R8)  returns 0x00000000 (0000ms, 0853ms total)
T0FA0 027:125 JLINK_ReadReg(R9)  returns 0x00000000 (0000ms, 0853ms total)
T0FA0 027:125 JLINK_ReadReg(R10)  returns 0x00000000 (0000ms, 0853ms total)
T0FA0 027:125 JLINK_ReadReg(R11)  returns 0x00000000 (0000ms, 0853ms total)
T0FA0 027:125 JLINK_ReadReg(R12)  returns 0x00000004 (0000ms, 0853ms total)
T0FA0 027:125 JLINK_ReadReg(R13 (SP))  returns 0x2000EF40 (0000ms, 0853ms total)
T0FA0 027:125 JLINK_ReadReg(R14)  returns 0x0100464F (0000ms, 0853ms total)
T0FA0 027:125 JLINK_ReadReg(R15 (PC))  returns 0x010041EC (0000ms, 0853ms total)
T0FA0 027:125 JLINK_ReadReg(XPSR)  returns 0x41000000 (0000ms, 0853ms total)
T0FA0 027:125 JLINK_ReadReg(MSP)  returns 0x2000EF40 (0000ms, 0853ms total)
T0FA0 027:125 JLINK_ReadReg(PSP)  returns 0x00000000 (0000ms, 0853ms total)
T0FA0 027:125 JLINK_ReadReg(CFBP)  returns 0x00000000 (0000ms, 0853ms total)
T0FA4 027:126 JLINK_ReadMem (0x2000EF48, 0x0001 Bytes, ...) -- CPU_ReadMem(1 bytes @ 0x2000EF48) - Data: 00  returns 0x00 (0000ms, 0853ms total)
T0FA4 027:126 JLINK_ReadMem (0x2000EF44, 0x0001 Bytes, ...) -- CPU_ReadMem(1 bytes @ 0x2000EF44) - Data: 00  returns 0x00 (0001ms, 0854ms total)
T0FA4 027:127 JLINK_ReadMem (0x00000000, 0x0004 Bytes, ...) -- CPU_ReadMem(4 bytes @ 0x00000000) - Data: 00 24 00 20  returns 0x00 (0001ms, 0855ms total)
T0FA0 027:558 JLINK_ReadMem (0x010041EC, 0x003C Bytes, ...) -- CPU_ReadMem(128 bytes @ 0x010041C0) -- Updating DA cache (128 bytes @ 0x010041C0) -- Read from DA cache (60 bytes @ 0x010041EC) - Data: 02 20 01 F0 92 FE 01 F0 D0 FE 05 20 01 F0 66 FE ...  returns 0x00 (0003ms, 0858ms total)
T0FA0 027:561 JLINK_Step() -- Read from DA cache (2 bytes @ 0x010041EC) -- CPU_ReadMem(4 bytes @ 0xE0001004) -- Simulated  returns 0x00 (0000ms, 0858ms total)
T0FA0 027:561 JLINK_ReadReg(R15 (PC))  returns 0x010041EE (0000ms, 0858ms total)
T0FA0 027:561 JLINK_ReadReg(XPSR)  returns 0x01000000 (0000ms, 0858ms total)
T0FA0 027:561 JLINK_SetBPEx(Addr = 0x010041F2, Type = 0xFFFFFFF2)  returns 0x00000004 (0001ms, 0859ms total)
T0FA0 027:562 JLINK_SetBPEx(Addr = 0x010041E8, Type = 0xFFFFFFF2)  returns 0x00000005 (0000ms, 0859ms total)
T0FA0 027:562 JLINK_Go() -- CPU_WriteMem(4 bytes @ 0xE0002008) -- CPU_WriteMem(4 bytes @ 0xE0001004) (0003ms, 0862ms total)
T0FA0 027:666 JLINK_IsHalted()  returns TRUE (0004ms, 0866ms total)
T0FA0 027:670 JLINK_Halt()  returns 0x00 (0000ms, 0862ms total)
T0FA0 027:670 JLINK_IsHalted()  returns TRUE (0000ms, 0862ms total)
T0FA0 027:670 JLINK_IsHalted()  returns TRUE (0000ms, 0862ms total)
T0FA0 027:670 JLINK_IsHalted()  returns TRUE (0000ms, 0862ms total)
T0FA0 027:670 JLINK_ReadReg(R15 (PC))  returns 0x010041F2 (0000ms, 0862ms total)
T0FA0 027:670 JLINK_ReadReg(XPSR)  returns 0x01000000 (0000ms, 0862ms total)
T0FA0 027:670 JLINK_ClrBPEx(BPHandle = 0x00000004)  returns 0x00 (0000ms, 0862ms total)
T0FA0 027:670 JLINK_ClrBPEx(BPHandle = 0x00000005)  returns 0x00 (0000ms, 0862ms total)
T0FA0 027:670 JLINK_ReadMemU32(0xE000ED30, 0x0001 Items, ...) -- CPU_ReadMem(4 bytes @ 0xE000ED30) - Data: 02 00 00 00  returns 0x01 (0001ms, 0863ms total)
T0FA0 027:671 JLINK_ReadMemU32(0xE0001028, 0x0001 Items, ...) -- CPU_ReadMem(4 bytes @ 0xE0001028) - Data: 00 00 00 00  returns 0x01 (0001ms, 0864ms total)
T0FA0 027:672 JLINK_ReadMemU32(0xE0001038, 0x0001 Items, ...) -- CPU_ReadMem(4 bytes @ 0xE0001038) - Data: 00 02 00 00  returns 0x01 (0001ms, 0865ms total)
T0FA0 027:673 JLINK_ReadMemU32(0xE0001048, 0x0001 Items, ...) -- CPU_ReadMem(4 bytes @ 0xE0001048) - Data: 00 00 00 00  returns 0x01 (0001ms, 0866ms total)
T0FA0 027:674 JLINK_ReadMemU32(0xE0001058, 0x0001 Items, ...) -- CPU_ReadMem(4 bytes @ 0xE0001058) - Data: 00 00 00 00  returns 0x01 (0001ms, 0867ms total)
T0FA0 027:675 JLINK_ReadReg(R0)  returns 0x00000002 (0000ms, 0867ms total)
T0FA0 027:675 JLINK_ReadReg(R1)  returns 0x2000B010 (0000ms, 0867ms total)
T0FA0 027:675 JLINK_ReadReg(R2)  returns 0x4001F000 (0000ms, 0867ms total)
T0FA0 027:675 JLINK_ReadReg(R3)  returns 0xE000E000 (0000ms, 0867ms total)
T0FA0 027:675 JLINK_ReadReg(R4)  returns 0x0100748C (0000ms, 0867ms total)
T0FA0 027:675 JLINK_ReadReg(R5)  returns 0x0100748C (0000ms, 0867ms total)
T0FA0 027:675 JLINK_ReadReg(R6)  returns 0x00000000 (0000ms, 0867ms total)
T0FA0 027:675 JLINK_ReadReg(R7)  returns 0x00000000 (0000ms, 0867ms total)
T0FA0 027:675 JLINK_ReadReg(R8)  returns 0x00000000 (0000ms, 0867ms total)
T0FA0 027:675 JLINK_ReadReg(R9)  returns 0x00000000 (0000ms, 0867ms total)
T0FA0 027:675 JLINK_ReadReg(R10)  returns 0x00000000 (0000ms, 0867ms total)
T0FA0 027:675 JLINK_ReadReg(R11)  returns 0x00000000 (0000ms, 0867ms total)
T0FA0 027:675 JLINK_ReadReg(R12)  returns 0x00000004 (0000ms, 0867ms total)
T0FA0 027:675 JLINK_ReadReg(R13 (SP))  returns 0x2000EF40 (0000ms, 0867ms total)
T0FA0 027:675 JLINK_ReadReg(R14)  returns 0x010041F3 (0000ms, 0867ms total)
T0FA0 027:675 JLINK_ReadReg(R15 (PC))  returns 0x010041F2 (0000ms, 0867ms total)
T0FA0 027:675 JLINK_ReadReg(XPSR)  returns 0x01000000 (0000ms, 0867ms total)
T0FA0 027:675 JLINK_ReadReg(MSP)  returns 0x2000EF40 (0000ms, 0867ms total)
T0FA0 027:675 JLINK_ReadReg(PSP)  returns 0x00000000 (0000ms, 0867ms total)
T0FA0 027:675 JLINK_ReadReg(CFBP)  returns 0x00000000 (0000ms, 0867ms total)
T0FA4 027:676 JLINK_ReadMem (0x2000EF48, 0x0001 Bytes, ...) -- CPU_ReadMem(1 bytes @ 0x2000EF48) - Data: 00  returns 0x00 (0000ms, 0867ms total)
T0FA4 027:676 JLINK_ReadMem (0x2000EF44, 0x0001 Bytes, ...) -- CPU_ReadMem(1 bytes @ 0x2000EF44) - Data: 00  returns 0x00 (0001ms, 0868ms total)
T0FA4 027:677 JLINK_ReadMem (0x00000000, 0x0004 Bytes, ...) -- CPU_ReadMem(4 bytes @ 0x00000000) - Data: 00 24 00 20  returns 0x00 (0001ms, 0869ms total)
T0FA4 027:690 JLINK_ReadMem (0x010041F2, 0x0002 Bytes, ...) -- CPU_ReadMem(64 bytes @ 0x010041C0) -- Updating DA cache (64 bytes @ 0x010041C0) -- Read from DA cache (2 bytes @ 0x010041F2) - Data: 01 F0  returns 0x00 (0002ms, 0871ms total)
T0FA4 027:692 JLINK_ReadMem (0x010041F4, 0x003C Bytes, ...) -- CPU_ReadMem(64 bytes @ 0x01004200) -- Updating DA cache (64 bytes @ 0x01004200) -- Read from DA cache (60 bytes @ 0x010041F4) - Data: D0 FE 05 20 01 F0 66 FE 02 F0 72 FC 4F E0 02 F0 ...  returns 0x00 (0001ms, 0872ms total)
T0FA0 028:093 JLINK_SetBPEx(Addr = 0x010041F6, Type = 0xFFFFFFF2)  returns 0x00000006 (0001ms, 0873ms total)
T0FA0 028:094 JLINK_SetBPEx(Addr = 0x010041E8, Type = 0xFFFFFFF2)  returns 0x00000007 (0000ms, 0873ms total)
T0FA0 028:094 JLINK_Go() -- CPU_WriteMem(4 bytes @ 0xE0002008) (0002ms, 0875ms total)
T0FA0 028:196 JLINK_IsHalted()  returns TRUE (0004ms, 0879ms total)
T0FA0 028:200 JLINK_Halt()  returns 0x00 (0000ms, 0875ms total)
T0FA0 028:200 JLINK_IsHalted()  returns TRUE (0000ms, 0875ms total)
T0FA0 028:200 JLINK_IsHalted()  returns TRUE (0000ms, 0875ms total)
T0FA0 028:200 JLINK_IsHalted()  returns TRUE (0000ms, 0875ms total)
T0FA0 028:200 JLINK_ReadReg(R15 (PC))  returns 0x010041F6 (0000ms, 0875ms total)
T0FA0 028:200 JLINK_ReadReg(XPSR)  returns 0x81000000 (0000ms, 0875ms total)
T0FA0 028:200 JLINK_ClrBPEx(BPHandle = 0x00000006)  returns 0x00 (0000ms, 0875ms total)
T0FA0 028:200 JLINK_ClrBPEx(BPHandle = 0x00000007)  returns 0x00 (0000ms, 0875ms total)
T0FA0 028:200 JLINK_ReadMemU32(0xE000ED30, 0x0001 Items, ...) -- CPU_ReadMem(4 bytes @ 0xE000ED30) - Data: 02 00 00 00  returns 0x01 (0001ms, 0876ms total)
T0FA0 028:201 JLINK_ReadMemU32(0xE0001028, 0x0001 Items, ...) -- CPU_ReadMem(4 bytes @ 0xE0001028) - Data: 00 00 00 00  returns 0x01 (0001ms, 0877ms total)
T0FA0 028:202 JLINK_ReadMemU32(0xE0001038, 0x0001 Items, ...) -- CPU_ReadMem(4 bytes @ 0xE0001038) - Data: 00 02 00 00  returns 0x01 (0001ms, 0878ms total)
T0FA0 028:203 JLINK_ReadMemU32(0xE0001048, 0x0001 Items, ...) -- CPU_ReadMem(4 bytes @ 0xE0001048) - Data: 00 00 00 00  returns 0x01 (0001ms, 0879ms total)
T0FA0 028:204 JLINK_ReadMemU32(0xE0001058, 0x0001 Items, ...) -- CPU_ReadMem(4 bytes @ 0xE0001058) - Data: 00 00 00 00  returns 0x01 (0001ms, 0880ms total)
T0FA0 028:205 JLINK_ReadReg(R0)  returns 0x00000002 (0000ms, 0880ms total)
T0FA0 028:205 JLINK_ReadReg(R1)  returns 0xFFFFFFFF (0000ms, 0880ms total)
T0FA0 028:205 JLINK_ReadReg(R2)  returns 0x00000000 (0000ms, 0880ms total)
T0FA0 028:205 JLINK_ReadReg(R3)  returns 0x00000000 (0000ms, 0880ms total)
T0FA0 028:205 JLINK_ReadReg(R4)  returns 0x0100748C (0000ms, 0880ms total)
T0FA0 028:205 JLINK_ReadReg(R5)  returns 0x0100748C (0000ms, 0880ms total)
T0FA0 028:205 JLINK_ReadReg(R6)  returns 0x00000000 (0000ms, 0880ms total)
T0FA0 028:205 JLINK_ReadReg(R7)  returns 0x00000000 (0000ms, 0880ms total)
T0FA0 028:205 JLINK_ReadReg(R8)  returns 0x00000000 (0000ms, 0880ms total)
T0FA0 028:205 JLINK_ReadReg(R9)  returns 0x00000000 (0000ms, 0880ms total)
T0FA0 028:205 JLINK_ReadReg(R10)  returns 0x00000000 (0000ms, 0880ms total)
T0FA0 028:205 JLINK_ReadReg(R11)  returns 0x00000000 (0000ms, 0880ms total)
T0FA0 028:205 JLINK_ReadReg(R12)  returns 0x00000004 (0000ms, 0880ms total)
T0FA0 028:205 JLINK_ReadReg(R13 (SP))  returns 0x2000EF40 (0000ms, 0880ms total)
T0FA0 028:205 JLINK_ReadReg(R14)  returns 0x01006005 (0000ms, 0880ms total)
T0FA0 028:205 JLINK_ReadReg(R15 (PC))  returns 0x010041F6 (0000ms, 0880ms total)
T0FA0 028:205 JLINK_ReadReg(XPSR)  returns 0x81000000 (0000ms, 0880ms total)
T0FA0 028:205 JLINK_ReadReg(MSP)  returns 0x2000EF40 (0000ms, 0880ms total)
T0FA0 028:205 JLINK_ReadReg(PSP)  returns 0x00000000 (0000ms, 0880ms total)
T0FA0 028:205 JLINK_ReadReg(CFBP)  returns 0x00000000 (0000ms, 0880ms total)
T0FA4 028:207 JLINK_ReadMem (0x2000EF48, 0x0001 Bytes, ...) -- CPU_ReadMem(1 bytes @ 0x2000EF48) - Data: 00  returns 0x00 (0000ms, 0880ms total)
T0FA4 028:207 JLINK_ReadMem (0x2000EF44, 0x0001 Bytes, ...) -- CPU_ReadMem(1 bytes @ 0x2000EF44) - Data: 00  returns 0x00 (0002ms, 0882ms total)
T0FA4 028:209 JLINK_ReadMem (0x00000000, 0x0004 Bytes, ...) -- CPU_ReadMem(4 bytes @ 0x00000000) - Data: 00 24 00 20  returns 0x00 (0000ms, 0882ms total)
T0FA0 028:640 JLINK_ReadMem (0x010041F6, 0x0002 Bytes, ...) -- CPU_ReadMem(64 bytes @ 0x010041C0) -- Updating DA cache (64 bytes @ 0x010041C0) -- Read from DA cache (2 bytes @ 0x010041F6) - Data: 05 20  returns 0x00 (0000ms, 0882ms total)
T0FA0 028:640 JLINK_ReadMem (0x010041F8, 0x003C Bytes, ...) -- CPU_ReadMem(64 bytes @ 0x01004200) -- Updating DA cache (64 bytes @ 0x01004200) -- Read from DA cache (60 bytes @ 0x010041F8) - Data: 01 F0 66 FE 02 F0 72 FC 4F E0 02 F0 7B FC 01 28 ...  returns 0x00 (0001ms, 0883ms total)
T0FA0 028:641 JLINK_Step() -- Read from DA cache (2 bytes @ 0x010041F6) -- CPU_ReadMem(4 bytes @ 0xE0001004) -- Simulated  returns 0x00 (0001ms, 0884ms total)
T0FA0 028:642 JLINK_ReadReg(R15 (PC))  returns 0x010041F8 (0000ms, 0884ms total)
T0FA0 028:642 JLINK_ReadReg(XPSR)  returns 0x01000000 (0000ms, 0884ms total)
T0FA0 028:642 JLINK_SetBPEx(Addr = 0x010041FC, Type = 0xFFFFFFF2)  returns 0x00000008 (0000ms, 0884ms total)
T0FA0 028:642 JLINK_SetBPEx(Addr = 0x010041E8, Type = 0xFFFFFFF2)  returns 0x00000009 (0000ms, 0884ms total)
T0FA0 028:642 JLINK_Go() -- CPU_WriteMem(4 bytes @ 0xE0002008) -- CPU_WriteMem(4 bytes @ 0xE0001004) (0004ms, 0888ms total)
T0FA0 028:747 JLINK_IsHalted()  returns TRUE (0004ms, 0892ms total)
T0FA0 028:751 JLINK_Halt()  returns 0x00 (0000ms, 0888ms total)
T0FA0 028:751 JLINK_IsHalted()  returns TRUE (0000ms, 0888ms total)
T0FA0 028:751 JLINK_IsHalted()  returns TRUE (0000ms, 0888ms total)
T0FA0 028:751 JLINK_IsHalted()  returns TRUE (0000ms, 0888ms total)
T0FA0 028:751 JLINK_ReadReg(R15 (PC))  returns 0x010041FC (0000ms, 0888ms total)
T0FA0 028:751 JLINK_ReadReg(XPSR)  returns 0x01000000 (0000ms, 0888ms total)
T0FA0 028:751 JLINK_ClrBPEx(BPHandle = 0x00000008)  returns 0x00 (0000ms, 0888ms total)
T0FA0 028:751 JLINK_ClrBPEx(BPHandle = 0x00000009)  returns 0x00 (0000ms, 0888ms total)
T0FA0 028:751 JLINK_ReadMemU32(0xE000ED30, 0x0001 Items, ...) -- CPU_ReadMem(4 bytes @ 0xE000ED30) - Data: 02 00 00 00  returns 0x01 (0001ms, 0889ms total)
T0FA0 028:752 JLINK_ReadMemU32(0xE0001028, 0x0001 Items, ...) -- CPU_ReadMem(4 bytes @ 0xE0001028) - Data: 00 00 00 00  returns 0x01 (0001ms, 0890ms total)
T0FA0 028:753 JLINK_ReadMemU32(0xE0001038, 0x0001 Items, ...) -- CPU_ReadMem(4 bytes @ 0xE0001038) - Data: 00 02 00 00  returns 0x01 (0001ms, 0891ms total)
T0FA0 028:754 JLINK_ReadMemU32(0xE0001048, 0x0001 Items, ...) -- CPU_ReadMem(4 bytes @ 0xE0001048) - Data: 00 00 00 00  returns 0x01 (0000ms, 0891ms total)
T0FA0 028:754 JLINK_ReadMemU32(0xE0001058, 0x0001 Items, ...) -- CPU_ReadMem(4 bytes @ 0xE0001058) - Data: 00 00 00 00  returns 0x01 (0001ms, 0892ms total)
T0FA0 028:755 JLINK_ReadReg(R0)  returns 0x00000005 (0000ms, 0892ms total)
T0FA0 028:755 JLINK_ReadReg(R1)  returns 0x03F55532 (0000ms, 0892ms total)
T0FA0 028:755 JLINK_ReadReg(R2)  returns 0x4001F000 (0000ms, 0892ms total)
T0FA0 028:755 JLINK_ReadReg(R3)  returns 0x00000000 (0000ms, 0892ms total)
T0FA0 028:755 JLINK_ReadReg(R4)  returns 0x0100748C (0000ms, 0892ms total)
T0FA0 028:755 JLINK_ReadReg(R5)  returns 0x0100748C (0001ms, 0893ms total)
T0FA0 028:756 JLINK_ReadReg(R6)  returns 0x00000000 (0000ms, 0893ms total)
T0FA0 028:756 JLINK_ReadReg(R7)  returns 0x00000000 (0000ms, 0893ms total)
T0FA0 028:756 JLINK_ReadReg(R8)  returns 0x00000000 (0000ms, 0893ms total)
T0FA0 028:756 JLINK_ReadReg(R9)  returns 0x00000000 (0000ms, 0893ms total)
T0FA0 028:756 JLINK_ReadReg(R10)  returns 0x00000000 (0000ms, 0893ms total)
T0FA0 028:756 JLINK_ReadReg(R11)  returns 0x00000000 (0000ms, 0893ms total)
T0FA0 028:756 JLINK_ReadReg(R12)  returns 0x00000004 (0000ms, 0893ms total)
T0FA0 028:756 JLINK_ReadReg(R13 (SP))  returns 0x2000EF40 (0000ms, 0893ms total)
T0FA0 028:756 JLINK_ReadReg(R14)  returns 0x010041FD (0000ms, 0893ms total)
T0FA0 028:756 JLINK_ReadReg(R15 (PC))  returns 0x010041FC (0000ms, 0893ms total)
T0FA0 028:756 JLINK_ReadReg(XPSR)  returns 0x01000000 (0000ms, 0893ms total)
T0FA0 028:756 JLINK_ReadReg(MSP)  returns 0x2000EF40 (0000ms, 0893ms total)
T0FA0 028:756 JLINK_ReadReg(PSP)  returns 0x00000000 (0000ms, 0893ms total)
T0FA0 028:756 JLINK_ReadReg(CFBP)  returns 0x00000000 (0000ms, 0893ms total)
T0FA4 028:756 JLINK_ReadMem (0x2000EF48, 0x0001 Bytes, ...) -- CPU_ReadMem(1 bytes @ 0x2000EF48) - Data: 00  returns 0x00 (0001ms, 0894ms total)
T0FA4 028:757 JLINK_ReadMem (0x2000EF44, 0x0001 Bytes, ...) -- CPU_ReadMem(1 bytes @ 0x2000EF44) - Data: 00  returns 0x00 (0001ms, 0895ms total)
T0FA4 028:758 JLINK_ReadMem (0x00000000, 0x0004 Bytes, ...) -- CPU_ReadMem(4 bytes @ 0x00000000) - Data: 00 24 00 20  returns 0x00 (0001ms, 0896ms total)
T0FA4 028:770 JLINK_ReadMem (0x010041FC, 0x003C Bytes, ...) -- CPU_ReadMem(128 bytes @ 0x010041C0) -- Updating DA cache (128 bytes @ 0x010041C0) -- Read from DA cache (60 bytes @ 0x010041FC) - Data: 02 F0 72 FC 4F E0 02 F0 7B FC 01 28 04 D0 02 28 ...  returns 0x00 (0002ms, 0898ms total)
T0FA0 029:254 JLINK_SetBPEx(Addr = 0x01004200, Type = 0xFFFFFFF2)  returns 0x0000000A (0001ms, 0899ms total)
T0FA0 029:255 JLINK_SetBPEx(Addr = 0x010041E8, Type = 0xFFFFFFF2)  returns 0x0000000B (0000ms, 0899ms total)
T0FA0 029:255 JLINK_Go() -- CPU_WriteMem(4 bytes @ 0xE0002008) (0003ms, 0902ms total)
T0FA0 029:358 JLINK_IsHalted()  returns TRUE (0004ms, 0906ms total)
T0FA0 029:362 JLINK_Halt()  returns 0x00 (0000ms, 0902ms total)
T0FA0 029:362 JLINK_IsHalted()  returns TRUE (0000ms, 0902ms total)
T0FA0 029:362 JLINK_IsHalted()  returns TRUE (0000ms, 0902ms total)
T0FA0 029:362 JLINK_IsHalted()  returns TRUE (0000ms, 0902ms total)
T0FA0 029:362 JLINK_ReadReg(R15 (PC))  returns 0x01004200 (0000ms, 0902ms total)
T0FA0 029:362 JLINK_ReadReg(XPSR)  returns 0x01000000 (0000ms, 0902ms total)
T0FA0 029:362 JLINK_ClrBPEx(BPHandle = 0x0000000A)  returns 0x00 (0000ms, 0902ms total)
T0FA0 029:362 JLINK_ClrBPEx(BPHandle = 0x0000000B)  returns 0x00 (0000ms, 0902ms total)
T0FA0 029:362 JLINK_ReadMemU32(0xE000ED30, 0x0001 Items, ...) -- CPU_ReadMem(4 bytes @ 0xE000ED30) - Data: 02 00 00 00  returns 0x01 (0001ms, 0903ms total)
T0FA0 029:363 JLINK_ReadMemU32(0xE0001028, 0x0001 Items, ...) -- CPU_ReadMem(4 bytes @ 0xE0001028) - Data: 00 00 00 00  returns 0x01 (0001ms, 0904ms total)
T0FA0 029:364 JLINK_ReadMemU32(0xE0001038, 0x0001 Items, ...) -- CPU_ReadMem(4 bytes @ 0xE0001038) - Data: 00 02 00 00  returns 0x01 (0000ms, 0904ms total)
T0FA0 029:364 JLINK_ReadMemU32(0xE0001048, 0x0001 Items, ...) -- CPU_ReadMem(4 bytes @ 0xE0001048) - Data: 00 00 00 00  returns 0x01 (0001ms, 0905ms total)
T0FA0 029:365 JLINK_ReadMemU32(0xE0001058, 0x0001 Items, ...) -- CPU_ReadMem(4 bytes @ 0xE0001058) - Data: 00 00 00 00  returns 0x01 (0001ms, 0906ms total)
T0FA0 029:366 JLINK_ReadReg(R0)  returns 0x00000001 (0000ms, 0906ms total)
T0FA0 029:366 JLINK_ReadReg(R1)  returns 0x2000B010 (0000ms, 0906ms total)
T0FA0 029:366 JLINK_ReadReg(R2)  returns 0x4001F000 (0000ms, 0906ms total)
T0FA0 029:366 JLINK_ReadReg(R3)  returns 0x00000000 (0001ms, 0907ms total)
T0FA0 029:367 JLINK_ReadReg(R4)  returns 0x0100748C (0000ms, 0907ms total)
T0FA0 029:367 JLINK_ReadReg(R5)  returns 0x0100748C (0000ms, 0907ms total)
T0FA0 029:367 JLINK_ReadReg(R6)  returns 0x00000000 (0000ms, 0907ms total)
T0FA0 029:367 JLINK_ReadReg(R7)  returns 0x00000000 (0000ms, 0907ms total)
T0FA0 029:367 JLINK_ReadReg(R8)  returns 0x00000000 (0000ms, 0907ms total)
T0FA0 029:367 JLINK_ReadReg(R9)  returns 0x00000000 (0000ms, 0907ms total)
T0FA0 029:367 JLINK_ReadReg(R10)  returns 0x00000000 (0000ms, 0907ms total)
T0FA0 029:367 JLINK_ReadReg(R11)  returns 0x00000000 (0000ms, 0907ms total)
T0FA0 029:367 JLINK_ReadReg(R12)  returns 0x00000004 (0000ms, 0907ms total)
T0FA0 029:367 JLINK_ReadReg(R13 (SP))  returns 0x2000EF40 (0000ms, 0907ms total)
T0FA0 029:367 JLINK_ReadReg(R14)  returns 0x01004201 (0000ms, 0907ms total)
T0FA0 029:367 JLINK_ReadReg(R15 (PC))  returns 0x01004200 (0000ms, 0907ms total)
T0FA0 029:367 JLINK_ReadReg(XPSR)  returns 0x01000000 (0000ms, 0907ms total)
T0FA0 029:367 JLINK_ReadReg(MSP)  returns 0x2000EF40 (0000ms, 0907ms total)
T0FA0 029:367 JLINK_ReadReg(PSP)  returns 0x00000000 (0000ms, 0907ms total)
T0FA0 029:367 JLINK_ReadReg(CFBP)  returns 0x00000000 (0000ms, 0907ms total)
T0FA4 029:367 JLINK_ReadMem (0x2000EF48, 0x0001 Bytes, ...) -- CPU_ReadMem(1 bytes @ 0x2000EF48) - Data: 00  returns 0x00 (0001ms, 0908ms total)
T0FA4 029:368 JLINK_ReadMem (0x2000EF44, 0x0001 Bytes, ...) -- CPU_ReadMem(1 bytes @ 0x2000EF44) - Data: 00  returns 0x00 (0001ms, 0909ms total)
T0FA4 029:369 JLINK_ReadMem (0x00000000, 0x0004 Bytes, ...) -- CPU_ReadMem(4 bytes @ 0x00000000) - Data: 00 24 00 20  returns 0x00 (0001ms, 0910ms total)
T0FA0 033:081 JLINK_ReadMem (0x01004200, 0x003C Bytes, ...) -- CPU_ReadMem(64 bytes @ 0x01004200) -- Updating DA cache (64 bytes @ 0x01004200) -- Read from DA cache (60 bytes @ 0x01004200) - Data: 4F E0 02 F0 7B FC 01 28 04 D0 02 28 47 D0 04 28 ...  returns 0x00 (0002ms, 0912ms total)
T0FA0 033:083 JLINK_Step() -- Read from DA cache (2 bytes @ 0x01004200) -- CPU_ReadMem(4 bytes @ 0xE0001004) -- Simulated  returns 0x00 (0002ms, 0914ms total)
T0FA0 033:085 JLINK_ReadReg(R15 (PC))  returns 0x010042A2 (0000ms, 0914ms total)
T0FA0 033:085 JLINK_ReadReg(XPSR)  returns 0x01000000 (0000ms, 0914ms total)
T0FA0 033:085 JLINK_ReadReg(R0)  returns 0x00000001 (0000ms, 0914ms total)
T0FA0 033:085 JLINK_ReadReg(R1)  returns 0x2000B010 (0000ms, 0914ms total)
T0FA0 033:085 JLINK_ReadReg(R2)  returns 0x4001F000 (0000ms, 0914ms total)
T0FA0 033:085 JLINK_ReadReg(R3)  returns 0x00000000 (0000ms, 0914ms total)
T0FA0 033:085 JLINK_ReadReg(R4)  returns 0x0100748C (0000ms, 0914ms total)
T0FA0 033:085 JLINK_ReadReg(R5)  returns 0x0100748C (0001ms, 0915ms total)
T0FA0 033:086 JLINK_ReadReg(R6)  returns 0x00000000 (0000ms, 0915ms total)
T0FA0 033:086 JLINK_ReadReg(R7)  returns 0x00000000 (0000ms, 0915ms total)
T0FA0 033:086 JLINK_ReadReg(R8)  returns 0x00000000 (0000ms, 0915ms total)
T0FA0 033:086 JLINK_ReadReg(R9)  returns 0x00000000 (0000ms, 0915ms total)
T0FA0 033:086 JLINK_ReadReg(R10)  returns 0x00000000 (0000ms, 0915ms total)
T0FA0 033:086 JLINK_ReadReg(R11)  returns 0x00000000 (0000ms, 0915ms total)
T0FA0 033:086 JLINK_ReadReg(R12)  returns 0x00000004 (0000ms, 0915ms total)
T0FA0 033:086 JLINK_ReadReg(R13 (SP))  returns 0x2000EF40 (0000ms, 0915ms total)
T0FA0 033:086 JLINK_ReadReg(R14)  returns 0x01004201 (0000ms, 0915ms total)
T0FA0 033:086 JLINK_ReadReg(R15 (PC))  returns 0x010042A2 (0000ms, 0915ms total)
T0FA0 033:086 JLINK_ReadReg(XPSR)  returns 0x01000000 (0000ms, 0915ms total)
T0FA0 033:086 JLINK_ReadReg(MSP)  returns 0x2000EF40 (0000ms, 0915ms total)
T0FA0 033:086 JLINK_ReadReg(PSP)  returns 0x00000000 (0000ms, 0915ms total)
T0FA0 033:086 JLINK_ReadReg(CFBP)  returns 0x00000000 (0000ms, 0915ms total)
T0FA4 033:093 JLINK_ReadMem (0x2000EF48, 0x0001 Bytes, ...) -- CPU_ReadMem(1 bytes @ 0x2000EF48) - Data: 00  returns 0x00 (0000ms, 0915ms total)
T0FA4 033:093 JLINK_ReadMem (0x2000EF44, 0x0001 Bytes, ...) -- CPU_ReadMem(1 bytes @ 0x2000EF44) - Data: 00  returns 0x00 (0001ms, 0916ms total)
T0FA4 033:094 JLINK_ReadMem (0x00000000, 0x0004 Bytes, ...) -- CPU_ReadMem(4 bytes @ 0x00000000) - Data: 00 24 00 20  returns 0x00 (0001ms, 0917ms total)
T0FA4 033:108 JLINK_ReadMem (0x010042A2, 0x0002 Bytes, ...) -- CPU_ReadMem(64 bytes @ 0x01004280) -- Updating DA cache (64 bytes @ 0x01004280) -- Read from DA cache (2 bytes @ 0x010042A2) - Data: AE E7  returns 0x00 (0001ms, 0918ms total)
T0FA4 033:109 JLINK_ReadMem (0x010042A4, 0x003C Bytes, ...) -- CPU_ReadMem(64 bytes @ 0x010042C0) -- Updating DA cache (64 bytes @ 0x010042C0) -- Read from DA cache (60 bytes @ 0x010042A4) - Data: 00 BF FE E7 00 60 01 40 01 00 10 84 01 00 00 84 ...  returns 0x00 (0002ms, 0920ms total)
T0FA0 033:696 JLINK_Step() -- Read from DA cache (2 bytes @ 0x010042A2) -- Simulated  returns 0x00 (0001ms, 0921ms total)
T0FA0 033:697 JLINK_ReadReg(R15 (PC))  returns 0x01004202 (0000ms, 0921ms total)
T0FA0 033:697 JLINK_ReadReg(XPSR)  returns 0x01000000 (0000ms, 0921ms total)
T0FA0 033:697 JLINK_ReadReg(R0)  returns 0x00000001 (0000ms, 0921ms total)
T0FA0 033:697 JLINK_ReadReg(R1)  returns 0x2000B010 (0000ms, 0921ms total)
T0FA0 033:697 JLINK_ReadReg(R2)  returns 0x4001F000 (0000ms, 0921ms total)
T0FA0 033:697 JLINK_ReadReg(R3)  returns 0x00000000 (0000ms, 0921ms total)
T0FA0 033:697 JLINK_ReadReg(R4)  returns 0x0100748C (0000ms, 0921ms total)
T0FA0 033:697 JLINK_ReadReg(R5)  returns 0x0100748C (0000ms, 0921ms total)
T0FA0 033:697 JLINK_ReadReg(R6)  returns 0x00000000 (0000ms, 0921ms total)
T0FA0 033:697 JLINK_ReadReg(R7)  returns 0x00000000 (0000ms, 0921ms total)
T0FA0 033:697 JLINK_ReadReg(R8)  returns 0x00000000 (0000ms, 0921ms total)
T0FA0 033:697 JLINK_ReadReg(R9)  returns 0x00000000 (0000ms, 0921ms total)
T0FA0 033:698 JLINK_ReadReg(R10)  returns 0x00000000 (0000ms, 0922ms total)
T0FA0 033:698 JLINK_ReadReg(R11)  returns 0x00000000 (0000ms, 0922ms total)
T0FA0 033:698 JLINK_ReadReg(R12)  returns 0x00000004 (0000ms, 0922ms total)
T0FA0 033:698 JLINK_ReadReg(R13 (SP))  returns 0x2000EF40 (0000ms, 0922ms total)
T0FA0 033:698 JLINK_ReadReg(R14)  returns 0x01004201 (0000ms, 0922ms total)
T0FA0 033:698 JLINK_ReadReg(R15 (PC))  returns 0x01004202 (0000ms, 0922ms total)
T0FA0 033:698 JLINK_ReadReg(XPSR)  returns 0x01000000 (0000ms, 0922ms total)
T0FA0 033:698 JLINK_ReadReg(MSP)  returns 0x2000EF40 (0000ms, 0922ms total)
T0FA0 033:698 JLINK_ReadReg(PSP)  returns 0x00000000 (0000ms, 0922ms total)
T0FA0 033:698 JLINK_ReadReg(CFBP)  returns 0x00000000 (0000ms, 0922ms total)
T0FA4 033:699 JLINK_ReadMem (0x2000EF48, 0x0001 Bytes, ...) -- CPU_ReadMem(1 bytes @ 0x2000EF48) - Data: 00  returns 0x00 (0001ms, 0923ms total)
T0FA4 033:700 JLINK_ReadMem (0x2000EF44, 0x0001 Bytes, ...) -- CPU_ReadMem(1 bytes @ 0x2000EF44) - Data: 00  returns 0x00 (0000ms, 0923ms total)
T0FA4 033:700 JLINK_ReadMem (0x00000000, 0x0004 Bytes, ...) -- CPU_ReadMem(4 bytes @ 0x00000000) - Data: 00 24 00 20  returns 0x00 (0001ms, 0924ms total)
T0FA4 033:710 JLINK_ReadMem (0x01004202, 0x0002 Bytes, ...) -- Read from DA cache (2 bytes @ 0x01004202) - Data: 02 F0  returns 0x00 (0000ms, 0924ms total)
T0FA4 033:710 JLINK_ReadMem (0x01004204, 0x003C Bytes, ...) -- Read from DA cache (60 bytes @ 0x01004204) - Data: 7B FC 01 28 04 D0 02 28 47 D0 04 28 44 D1 40 E0 ...  returns 0x00 (0000ms, 0924ms total)
T0FA0 034:187 JLINK_SetBPEx(Addr = 0x01004206, Type = 0xFFFFFFF2)  returns 0x0000000C (0001ms, 0925ms total)
T0FA0 034:188 JLINK_SetBPEx(Addr = 0x010041E8, Type = 0xFFFFFFF2)  returns 0x0000000D (0000ms, 0925ms total)
T0FA0 034:188 JLINK_Go() -- CPU_WriteMem(4 bytes @ 0xE0002008) -- CPU_WriteMem(4 bytes @ 0xE0001004) (0003ms, 0928ms total)
T0FA0 034:292 JLINK_IsHalted()  returns TRUE (0004ms, 0932ms total)
T0FA0 034:296 JLINK_Halt()  returns 0x00 (0000ms, 0928ms total)
T0FA0 034:296 JLINK_IsHalted()  returns TRUE (0000ms, 0928ms total)
T0FA0 034:296 JLINK_IsHalted()  returns TRUE (0000ms, 0928ms total)
T0FA0 034:296 JLINK_IsHalted()  returns TRUE (0000ms, 0928ms total)
T0FA0 034:296 JLINK_ReadReg(R15 (PC))  returns 0x01004206 (0000ms, 0928ms total)
T0FA0 034:296 JLINK_ReadReg(XPSR)  returns 0x61000000 (0000ms, 0928ms total)
T0FA0 034:296 JLINK_ClrBPEx(BPHandle = 0x0000000C)  returns 0x00 (0000ms, 0928ms total)
T0FA0 034:296 JLINK_ClrBPEx(BPHandle = 0x0000000D)  returns 0x00 (0000ms, 0928ms total)
T0FA0 034:296 JLINK_ReadMemU32(0xE000ED30, 0x0001 Items, ...) -- CPU_ReadMem(4 bytes @ 0xE000ED30) - Data: 02 00 00 00  returns 0x01 (0001ms, 0929ms total)
T0FA0 034:297 JLINK_ReadMemU32(0xE0001028, 0x0001 Items, ...) -- CPU_ReadMem(4 bytes @ 0xE0001028) - Data: 00 00 00 00  returns 0x01 (0001ms, 0930ms total)
T0FA0 034:298 JLINK_ReadMemU32(0xE0001038, 0x0001 Items, ...) -- CPU_ReadMem(4 bytes @ 0xE0001038) - Data: 00 02 00 00  returns 0x01 (0001ms, 0931ms total)
T0FA0 034:299 JLINK_ReadMemU32(0xE0001048, 0x0001 Items, ...) -- CPU_ReadMem(4 bytes @ 0xE0001048) - Data: 00 00 00 00  returns 0x01 (0001ms, 0932ms total)
T0FA0 034:300 JLINK_ReadMemU32(0xE0001058, 0x0001 Items, ...) -- CPU_ReadMem(4 bytes @ 0xE0001058) - Data: 00 00 00 00  returns 0x01 (0001ms, 0933ms total)
T0FA0 034:301 JLINK_Step() -- CPU_ReadMem(64 bytes @ 0x01004200) -- Updating DA cache (64 bytes @ 0x01004200) -- Read from DA cache (2 bytes @ 0x01004206) -- CPU_ReadMem(4 bytes @ 0xE0001004) -- Simulated  returns 0x00 (0002ms, 0935ms total)
T0FA0 034:303 JLINK_ReadReg(R15 (PC))  returns 0x01004208 (0000ms, 0935ms total)
T0FA0 034:303 JLINK_ReadReg(XPSR)  returns 0x21000000 (0000ms, 0935ms total)
T0FA0 034:303 JLINK_Step() -- Read from DA cache (2 bytes @ 0x01004208) -- Simulated  returns 0x00 (0000ms, 0935ms total)
T0FA0 034:303 JLINK_ReadReg(R15 (PC))  returns 0x0100420A (0000ms, 0935ms total)
T0FA0 034:303 JLINK_ReadReg(XPSR)  returns 0x21000000 (0000ms, 0935ms total)
T0FA0 034:303 JLINK_Step() -- Read from DA cache (2 bytes @ 0x0100420A) -- Simulated  returns 0x00 (0000ms, 0935ms total)
T0FA0 034:303 JLINK_ReadReg(R15 (PC))  returns 0x0100420C (0000ms, 0935ms total)
T0FA0 034:303 JLINK_ReadReg(XPSR)  returns 0x61000000 (0000ms, 0935ms total)
T0FA0 034:303 JLINK_Step() -- Read from DA cache (2 bytes @ 0x0100420C) -- Simulated  returns 0x00 (0000ms, 0935ms total)
T0FA0 034:303 JLINK_ReadReg(R15 (PC))  returns 0x0100429E (0000ms, 0935ms total)
T0FA0 034:303 JLINK_ReadReg(XPSR)  returns 0x61000000 (0000ms, 0935ms total)
T0FA0 034:303 JLINK_ReadReg(R0)  returns 0x00000002 (0000ms, 0935ms total)
T0FA0 034:303 JLINK_ReadReg(R1)  returns 0x2000B010 (0001ms, 0936ms total)
T0FA0 034:304 JLINK_ReadReg(R2)  returns 0x4001F000 (0000ms, 0936ms total)
T0FA0 034:304 JLINK_ReadReg(R3)  returns 0x00000000 (0000ms, 0936ms total)
T0FA0 034:304 JLINK_ReadReg(R4)  returns 0x0100748C (0000ms, 0936ms total)
T0FA0 034:304 JLINK_ReadReg(R5)  returns 0x0100748C (0000ms, 0936ms total)
T0FA0 034:304 JLINK_ReadReg(R6)  returns 0x00000000 (0000ms, 0936ms total)
T0FA0 034:304 JLINK_ReadReg(R7)  returns 0x00000000 (0000ms, 0936ms total)
T0FA0 034:304 JLINK_ReadReg(R8)  returns 0x00000000 (0000ms, 0936ms total)
T0FA0 034:304 JLINK_ReadReg(R9)  returns 0x00000000 (0000ms, 0936ms total)
T0FA0 034:304 JLINK_ReadReg(R10)  returns 0x00000000 (0000ms, 0936ms total)
T0FA0 034:304 JLINK_ReadReg(R11)  returns 0x00000000 (0000ms, 0936ms total)
T0FA0 034:304 JLINK_ReadReg(R12)  returns 0x00000004 (0000ms, 0936ms total)
T0FA0 034:304 JLINK_ReadReg(R13 (SP))  returns 0x2000EF40 (0000ms, 0936ms total)
T0FA0 034:304 JLINK_ReadReg(R14)  returns 0x01004207 (0000ms, 0936ms total)
T0FA0 034:304 JLINK_ReadReg(R15 (PC))  returns 0x0100429E (0000ms, 0936ms total)
T0FA0 034:304 JLINK_ReadReg(XPSR)  returns 0x61000000 (0000ms, 0936ms total)
T0FA0 034:304 JLINK_ReadReg(MSP)  returns 0x2000EF40 (0000ms, 0936ms total)
T0FA0 034:304 JLINK_ReadReg(PSP)  returns 0x00000000 (0000ms, 0936ms total)
T0FA0 034:304 JLINK_ReadReg(CFBP)  returns 0x00000000 (0000ms, 0936ms total)
T0FA4 034:304 JLINK_ReadMem (0x2000EF48, 0x0001 Bytes, ...) -- CPU_ReadMem(1 bytes @ 0x2000EF48) - Data: 00  returns 0x00 (0001ms, 0937ms total)
T0FA4 034:305 JLINK_ReadMem (0x2000EF44, 0x0001 Bytes, ...) -- CPU_ReadMem(1 bytes @ 0x2000EF44) - Data: 00  returns 0x00 (0001ms, 0938ms total)
T0FA4 034:306 JLINK_ReadMem (0x00000000, 0x0004 Bytes, ...) -- CPU_ReadMem(4 bytes @ 0x00000000) - Data: 00 24 00 20  returns 0x00 (0000ms, 0938ms total)
T0FA0 035:308 JLINK_ReadMem (0x0100429E, 0x0002 Bytes, ...) -- CPU_ReadMem(64 bytes @ 0x01004280) -- Updating DA cache (64 bytes @ 0x01004280) -- Read from DA cache (2 bytes @ 0x0100429E) - Data: 00 BF  returns 0x00 (0002ms, 0940ms total)
T0FA0 035:310 JLINK_ReadMem (0x010042A0, 0x003C Bytes, ...) -- CPU_ReadMem(64 bytes @ 0x010042C0) -- Updating DA cache (64 bytes @ 0x010042C0) -- Read from DA cache (60 bytes @ 0x010042A0) - Data: 00 BF AE E7 00 BF FE E7 00 60 01 40 01 00 10 84 ...  returns 0x00 (0001ms, 0941ms total)
T0FA0 035:311 JLINK_Step() -- Read from DA cache (2 bytes @ 0x0100429E) -- Simulated  returns 0x00 (0001ms, 0942ms total)
T0FA0 035:312 JLINK_ReadReg(R15 (PC))  returns 0x010042A0 (0000ms, 0942ms total)
T0FA0 035:312 JLINK_ReadReg(XPSR)  returns 0x61000000 (0000ms, 0942ms total)
T0FA0 035:312 JLINK_ReadReg(R0)  returns 0x00000002 (0000ms, 0942ms total)
T0FA0 035:312 JLINK_ReadReg(R1)  returns 0x2000B010 (0000ms, 0942ms total)
T0FA0 035:312 JLINK_ReadReg(R2)  returns 0x4001F000 (0000ms, 0942ms total)
T0FA0 035:312 JLINK_ReadReg(R3)  returns 0x00000000 (0000ms, 0942ms total)
T0FA0 035:312 JLINK_ReadReg(R4)  returns 0x0100748C (0000ms, 0942ms total)
T0FA0 035:312 JLINK_ReadReg(R5)  returns 0x0100748C (0000ms, 0942ms total)
T0FA0 035:312 JLINK_ReadReg(R6)  returns 0x00000000 (0000ms, 0942ms total)
T0FA0 035:312 JLINK_ReadReg(R7)  returns 0x00000000 (0000ms, 0942ms total)
T0FA0 035:312 JLINK_ReadReg(R8)  returns 0x00000000 (0000ms, 0942ms total)
T0FA0 035:312 JLINK_ReadReg(R9)  returns 0x00000000 (0000ms, 0942ms total)
T0FA0 035:312 JLINK_ReadReg(R10)  returns 0x00000000 (0000ms, 0942ms total)
T0FA0 035:312 JLINK_ReadReg(R11)  returns 0x00000000 (0000ms, 0942ms total)
T0FA0 035:312 JLINK_ReadReg(R12)  returns 0x00000004 (0000ms, 0942ms total)
T0FA0 035:312 JLINK_ReadReg(R13 (SP))  returns 0x2000EF40 (0001ms, 0943ms total)
T0FA0 035:313 JLINK_ReadReg(R14)  returns 0x01004207 (0000ms, 0943ms total)
T0FA0 035:313 JLINK_ReadReg(R15 (PC))  returns 0x010042A0 (0000ms, 0943ms total)
T0FA0 035:313 JLINK_ReadReg(XPSR)  returns 0x61000000 (0000ms, 0943ms total)
T0FA0 035:313 JLINK_ReadReg(MSP)  returns 0x2000EF40 (0000ms, 0943ms total)
T0FA0 035:313 JLINK_ReadReg(PSP)  returns 0x00000000 (0000ms, 0943ms total)
T0FA0 035:313 JLINK_ReadReg(CFBP)  returns 0x00000000 (0000ms, 0943ms total)
T0FA4 035:316 JLINK_ReadMem (0x2000EF48, 0x0001 Bytes, ...) -- CPU_ReadMem(1 bytes @ 0x2000EF48) - Data: 00  returns 0x00 (0001ms, 0944ms total)
